
T0E04 000:278 SEGGER J-Link V5.12f Log File (0001ms, 0257ms total)
T0E04 000:278 DLL Compiled: May 17 2016 16:03:35 (0001ms, 0257ms total)
T0E04 000:278 Logging started @ 2016-10-22 20:00 (0001ms, 0257ms total)
T0E04 000:279 JLINK_SetWarnOutHandler(...) (0000ms, 0257ms total)
T0E04 000:279 JLINK_OpenEx(...)
Firmware: J-Link OB-SAM3U128 V1 compiled Mar 29 2016 18:48:55
Hardware: V1.00
S/N: 480024049  returns O.K. (0256ms, 0513ms total)
T0E04 000:535 JLINK_SetErrorOutHandler(...) (0000ms, 0513ms total)
T0E04 000:535 JLINK_ExecCommand("ProjectFile = "D:\NXP\NXP BLE\NXP BLE Workspace\BLE-QN9020-MultiBeacon plus Connectable\project\keil\JLinkSettings.ini"", ...)  returns 0x00 (0000ms, 0513ms total)
T0E04 000:537 JLINK_ExecCommand("Device = QN9020", ...)Device "QN9020" selected.  returns 0x00 (0002ms, 0515ms total)
T0E04 000:539 JLINK_ExecCommand("DisableConnectionTimeout", ...)  returns 0x01 (0000ms, 0515ms total)
T0E04 000:539 JLINK_GetHardwareVersion()  returns 0x2710 (0000ms, 0515ms total)
T0E04 000:539 JLINK_GetDLLVersion()  returns 51206 (0000ms, 0515ms total)
T0E04 000:539 JLINK_GetFirmwareString(...) (0000ms, 0515ms total)
T0E04 000:545 JLINK_GetDLLVersion()  returns 51206 (0000ms, 0515ms total)
T0E04 000:545 JLINK_GetCompileDateTime() (0000ms, 0515ms total)
T0E04 000:547 JLINK_GetFirmwareString(...) (0000ms, 0515ms total)
T0E04 000:549 JLINK_GetHardwareVersion()  returns 0x2710 (0000ms, 0515ms total)
T0E04 000:561 JLINK_TIF_Select(JLINKARM_TIF_SWD)  returns 0x00 (0000ms, 0515ms total)
T0E04 000:561 JLINK_SetSpeed(5000) (0001ms, 0516ms total)
T0E04 000:562 JLINK_GetId() >0x108 TIF>Found SWD-DP with ID 0x0BB11477 >0x0D TIF> >0x28 TIF> >0x0D TIF> >0x28 TIF> >0x0D TIF> >0x28 TIF> >0x0D TIF> >0x28 TIF> >0x0D TIF> >0x21 TIF> >0x0D TIF> >0x28 TIF> >0x0D TIF> >0x28 TIF> >0x0D TIF> >0x21 TIF> >0x0D TIF> >0x21 TIF> >0x0D TIF> >0x21 TIF> >0x0D TIF> >0x28 TIF> >0x0D TIF> >0x28 TIF> >0x0D TIF> >0x28 TIF> >0x0D TIF> >0x21 TIF> >0x0D TIF> >0x21 TIF> >0x0D TIF> >0x28 TIF> >0x0D TIF> >0x21 TIF> >0x0D TIF> >0x21 TIF>Found Cortex-M0 r0p0, Little endian.
 -- CPU_ReadMem(4 bytes @ 0xE000EDF0) -- CPU_WriteMem(4 bytes @ 0xE000EDF0) -- CPU_ReadMem(4 bytes @ 0xE0002000)FPUnit: 4 code (BP) slots and 0 literal slots -- CPU_ReadMem(4 bytes @ 0xE000EDFC) -- CPU_WriteMem(4 bytes @ 0xE000EDFC) -- CPU_ReadMem(4 bytes @ 0xE0001000) -- CPU_WriteMem(4 bytes @ 0xE0001000)CoreSight components:ROMTbl 0 @ E00FF000 -- CPU_ReadMem(16 bytes @ 0xE00FF000) -- CPU_ReadMem(16 bytes @ 0xE000EFF0) -- CPU_ReadMem(16 bytes @ 0xE000EFE0)
ROMTbl 0 [0]: FFF0F000, CID: B105E00D, PID: 000BB008 SCS -- CPU_ReadMem(16 bytes @ 0xE0001FF0) -- CPU_ReadMem(16 bytes @ 0xE0001FE0)ROMTbl 0 [1]: FFF02000, CID: B105E00D, PID: 000BB00A DWT -- CPU_ReadMem(16 bytes @ 0xE0002FF0) -- CPU_ReadMem(16 bytes @ 0xE0002FE0)ROMTbl 0 [2]: FFF03000, CID: B105E00D, PID: 000BB00B FPB >0x0D TIF> >0x21 TIF>  returns 0x0BB11477 (0023ms, 0539ms total)
T0E04 000:585 JLINK_GetDLLVersion()  returns 51206 (0000ms, 0539ms total)
T0E04 000:585 JLINK_CORE_GetFound()  returns 0x60000FF (0000ms, 0539ms total)
T0E04 000:585 JLINK_GetDebugInfo(0x100) -- Value=0xE00FF000  returns 0x00 (0000ms, 0539ms total)
T0E04 000:587 JLINK_GetDebugInfo(0x100) -- Value=0xE00FF000  returns 0x00 (0000ms, 0539ms total)
T0E04 000:587 JLINK_GetDebugInfo(0x101) -- Value=0x00000000  returns 0x00 (0000ms, 0539ms total)
T0E04 000:587 JLINK_ReadMem (0xE0041FF0, 0x0010 Bytes, ...) -- CPU is running -- CPU_ReadMem(16 bytes @ 0xE0041FF0) - Data: 00 00 00 00 00 00 00 00 00 00 00 00 00 00 00 00  returns 0x00 (0001ms, 0540ms total)
T0E04 000:588 JLINK_GetDebugInfo(0x102) -- Value=0x00000000  returns 0x00 (0000ms, 0540ms total)
T0E04 000:588 JLINK_GetDebugInfo(0x103) -- Value=0x00000000  returns 0x00 (0000ms, 0540ms total)
T0E04 000:588 JLINK_ReadMem (0xE0040FF0, 0x0010 Bytes, ...) -- CPU is running -- CPU_ReadMem(16 bytes @ 0xE0040FF0) - Data: 00 00 00 00 00 00 00 00 00 00 00 00 00 00 00 00  returns 0x00 (0000ms, 0540ms total)
T0E04 000:588 JLINK_GetDebugInfo(0x104) -- Value=0xE0000000  returns 0x00 (0000ms, 0540ms total)
T0E04 000:588 JLINK_GetDebugInfo(0x105) -- Value=0xE0001000  returns 0x00 (0000ms, 0540ms total)
T0E04 000:588 JLINK_GetDebugInfo(0x106) -- Value=0xE0002000  returns 0x00 (0000ms, 0540ms total)
T0E04 000:588 JLINK_GetDebugInfo(0x107) -- Value=0xE000E000  returns 0x00 (0000ms, 0540ms total)
T0E04 000:588 JLINK_GetDebugInfo(0x10C) -- Value=0xE000EDF0  returns 0x00 (0000ms, 0540ms total)
T0E04 000:588 JLINK_ReadMemU32(0xE000ED00, 0x0001 Items, ...) -- CPU is running -- CPU_ReadMem(4 bytes @ 0xE000ED00) - Data: 00 C2 0C 41  returns 0x01 (0000ms, 0540ms total)
T0E04 000:588 JLINK_SetResetType(JLINKARM_RESET_TYPE_NORMAL)  returns JLINKARM_RESET_TYPE_NORMAL (0000ms, 0540ms total)
T0E04 000:588 JLINK_Reset() -- CPU is running -- CPU_WriteMem(4 bytes @ 0xE000EDF0) -- CPU is running -- CPU_WriteMem(4 bytes @ 0xE000EDFC) >0x35 TIF> -- CPU is running -- CPU_WriteMem(4 bytes @ 0xE000ED0C) -- CPU is running -- CPU_ReadMem(4 bytes @ 0xE000EDF0) -- CPU is running -- CPU_ReadMem(4 bytes @ 0xE000EDF0) -- CPU is running -- CPU_WriteMem(4 bytes @ 0xE000EDF0) -- CPU is running -- CPU_WriteMem(4 bytes @ 0xE000EDFC) -- CPU is running -- CPU_ReadMem(4 bytes @ 0xE000EDF0)
 -- CPU_WriteMem(4 bytes @ 0xE0002000) -- CPU_ReadMem(4 bytes @ 0xE000EDFC) -- CPU_ReadMem(4 bytes @ 0xE0001000) -- CPU_WriteMem(4 bytes @ 0xE0001000) (0014ms, 0554ms total)
T0E04 000:602 JLINK_Halt()  returns 0x00 (0000ms, 0554ms total)
T0E04 000:602 JLINK_IsHalted()  returns TRUE (0000ms, 0554ms total)
T0E04 000:602 JLINK_ReadMemU32(0xE000EDF0, 0x0001 Items, ...) -- CPU_ReadMem(4 bytes @ 0xE000EDF0) - Data: 03 00 03 00  returns 0x01 (0000ms, 0554ms total)
T0E04 000:602 JLINK_WriteU32(0xE000EDF0, 0xA05F0003) -- CPU_WriteMem(4 bytes @ 0xE000EDF0)  returns 0x00 (0000ms, 0554ms total)
T0E04 000:602 JLINK_WriteU32(0xE000EDFC, 0x01000000) -- CPU_WriteMem(4 bytes @ 0xE000EDFC)  returns 0x00 (0000ms, 0554ms total)
T0E04 000:609 JLINK_GetHWStatus(...)  returns 0x00 (0000ms, 0554ms total)
T0E04 000:614 JLINK_GetNumBPUnits(Type = 0xFFFFFF00)  returns 0x04 (0000ms, 0554ms total)
T0E04 000:614 JLINK_GetNumBPUnits(Type = 0xF0)  returns 0x2000 (0000ms, 0554ms total)
T0E04 000:614 JLINK_GetNumWPUnits()  returns 0x02 (0000ms, 0554ms total)
T0E04 000:619 JLINK_GetSpeed()  returns 0x1388 (0000ms, 0554ms total)
T0E04 000:621 JLINK_ReadMemU32(0xE000E004, 0x0001 Items, ...) -- CPU_ReadMem(4 bytes @ 0xE000E004) - Data: 00 00 00 00  returns 0x01 (0001ms, 0555ms total)
T0E04 000:622 JLINK_Halt()  returns 0x00 (0000ms, 0555ms total)
T0E04 000:622 JLINK_IsHalted()  returns TRUE (0000ms, 0555ms total)
T0E04 000:624 JLINK_WriteMem(0x10000000, 0x0BE0 Bytes, ...) - Data: 00 BE 0A E0 0D 78 2D 06 68 40 08 24 40 00 00 D3 ... -- CPU_WriteMem(3040 bytes @ 0x10000000)  returns 0xBE0 (0018ms, 0573ms total)
T0E04 000:642 JLINK_WriteReg(R0, 0x10000000)  returns 0x00 (0000ms, 0573ms total)
T0E04 000:642 JLINK_WriteReg(R1, 0x00F42400)  returns 0x00 (0000ms, 0573ms total)
T0E04 000:642 JLINK_WriteReg(R2, 0x00000001)  returns 0x00 (0000ms, 0573ms total)
T0E04 000:642 JLINK_WriteReg(R3, 0x00000000)  returns 0x00 (0000ms, 0573ms total)
T0E04 000:642 JLINK_WriteReg(R4, 0x00000000)  returns 0x00 (0000ms, 0573ms total)
T0E04 000:642 JLINK_WriteReg(R5, 0x00000000)  returns 0x00 (0000ms, 0573ms total)
T0E04 000:642 JLINK_WriteReg(R6, 0x00000000)  returns 0x00 (0000ms, 0573ms total)
T0E04 000:642 JLINK_WriteReg(R7, 0x00000000)  returns 0x00 (0000ms, 0573ms total)
T0E04 000:642 JLINK_WriteReg(R8, 0x00000000)  returns 0x00 (0000ms, 0573ms total)
T0E04 000:642 JLINK_WriteReg(R9, 0x10000BAC)  returns 0x00 (0000ms, 0573ms total)
T0E04 000:642 JLINK_WriteReg(R10, 0x00000000)  returns 0x00 (0000ms, 0573ms total)
T0E04 000:642 JLINK_WriteReg(R11, 0x00000000)  returns 0x00 (0000ms, 0573ms total)
T0E04 000:642 JLINK_WriteReg(R12, 0x00000000)  returns 0x00 (0000ms, 0573ms total)
T0E04 000:642 JLINK_WriteReg(R13 (SP), 0x10008000)  returns 0x00 (0000ms, 0573ms total)
T0E04 000:642 JLINK_WriteReg(R14, 0x10000001)  returns 0x00 (0000ms, 0573ms total)
T0E04 000:642 JLINK_WriteReg(R15 (PC), 0x100001F4)  returns 0x00 (0000ms, 0573ms total)
T0E04 000:642 JLINK_WriteReg(XPSR, 0x01000000)  returns 0x00 (0000ms, 0573ms total)
T0E04 000:642 JLINK_WriteReg(MSP, 0x10008000)  returns 0x00 (0000ms, 0573ms total)
T0E04 000:642 JLINK_WriteReg(PSP, 0x10008000)  returns 0x00 (0000ms, 0573ms total)
T0E04 000:642 JLINK_WriteReg(CFBP, 0x00000000)  returns 0x00 (0000ms, 0573ms total)
T0E04 000:642 JLINK_SetBPEx(Addr = 0x10000000, Type = 0xFFFFFFF2)  returns 0x00000001 (0000ms, 0573ms total)
T0E04 000:642 JLINK_Go() -- CPU_WriteMem(4 bytes @ 0xE0002000) -- CPU_ReadMem(4 bytes @ 0xE0001000) -- CPU_WriteMem(4 bytes @ 0xE0001000) -- CPU_WriteMem(4 bytes @ 0xE0002008) -- CPU_WriteMem(4 bytes @ 0xE000200C) -- CPU_WriteMem(4 bytes @ 0xE0002010) -- CPU_WriteMem(4 bytes @ 0xE0002014) -- CPU_WriteMem(4 bytes @ 0xE0001004) (0005ms, 0578ms total)
T0E04 000:647 JLINK_IsHalted()  returns FALSE (0000ms, 0578ms total)
T0E04 000:672 JLINK_IsHalted()  returns TRUE (0002ms, 0580ms total)
T0E04 000:674 JLINK_ReadReg(R15 (PC))  returns 0x10000000 (0000ms, 0578ms total)
T0E04 000:674 JLINK_ClrBPEx(BPHandle = 0x00000001)  returns 0x00 (0000ms, 0578ms total)
T0E04 000:674 JLINK_ReadReg(R0)  returns 0x00000000 (0000ms, 0578ms total)
T0E04 000:674 JLINK_WriteReg(R0, 0x10000000)  returns 0x00 (0000ms, 0578ms total)
T0E04 000:674 JLINK_WriteReg(R1, 0x00001000)  returns 0x00 (0000ms, 0578ms total)
T0E04 000:674 JLINK_WriteReg(R2, 0x000000FF)  returns 0x00 (0000ms, 0578ms total)
T0E04 000:674 JLINK_WriteReg(R3, 0x00000000)  returns 0x00 (0000ms, 0578ms total)
T0E04 000:674 JLINK_WriteReg(R4, 0x00000000)  returns 0x00 (0000ms, 0578ms total)
T0E04 000:674 JLINK_WriteReg(R5, 0x00000000)  returns 0x00 (0000ms, 0578ms total)
T0E04 000:674 JLINK_WriteReg(R6, 0x00000000)  returns 0x00 (0000ms, 0578ms total)
T0E04 000:674 JLINK_WriteReg(R7, 0x00000000)  returns 0x00 (0000ms, 0578ms total)
T0E04 000:674 JLINK_WriteReg(R8, 0x00000000)  returns 0x00 (0000ms, 0578ms total)
T0E04 000:674 JLINK_WriteReg(R9, 0x10000BAC)  returns 0x00 (0000ms, 0578ms total)
T0E04 000:674 JLINK_WriteReg(R10, 0x00000000)  returns 0x00 (0000ms, 0578ms total)
T0E04 000:674 JLINK_WriteReg(R11, 0x00000000)  returns 0x00 (0000ms, 0578ms total)
T0E04 000:674 JLINK_WriteReg(R12, 0x00000000)  returns 0x00 (0000ms, 0578ms total)
T0E04 000:674 JLINK_WriteReg(R13 (SP), 0x10008000)  returns 0x00 (0001ms, 0579ms total)
T0E04 000:675 JLINK_WriteReg(R14, 0x10000001)  returns 0x00 (0000ms, 0579ms total)
T0E04 000:675 JLINK_WriteReg(R15 (PC), 0x10000020)  returns 0x00 (0000ms, 0579ms total)
T0E04 000:675 JLINK_WriteReg(XPSR, 0x01000000)  returns 0x00 (0000ms, 0579ms total)
T0E04 000:675 JLINK_WriteReg(MSP, 0x10008000)  returns 0x00 (0000ms, 0579ms total)
T0E04 000:675 JLINK_WriteReg(PSP, 0x10008000)  returns 0x00 (0000ms, 0579ms total)
T0E04 000:675 JLINK_WriteReg(CFBP, 0x00000000)  returns 0x00 (0000ms, 0579ms total)
T0E04 000:675 JLINK_SetBPEx(Addr = 0x10000000, Type = 0xFFFFFFF2)  returns 0x00000002 (0000ms, 0579ms total)
T0E04 000:675 JLINK_Go() -- CPU_WriteMem(4 bytes @ 0xE0002000) -- CPU_ReadMem(4 bytes @ 0xE0001000) -- CPU_WriteMem(4 bytes @ 0xE0001000) (0002ms, 0581ms total)
T0E04 000:677 JLINK_IsHalted()  returns TRUE (0002ms, 0583ms total)
T0E04 000:679 JLINK_ReadReg(R15 (PC))  returns 0x10000000 (0000ms, 0581ms total)
T0E04 000:679 JLINK_ClrBPEx(BPHandle = 0x00000002)  returns 0x00 (0000ms, 0581ms total)
T0E04 000:679 JLINK_ReadReg(R0)  returns 0x00000001 (0000ms, 0581ms total)
T0E04 000:679 JLINK_WriteReg(R0, 0x10000000)  returns 0x00 (0000ms, 0581ms total)
T0E04 000:679 JLINK_WriteReg(R1, 0x00001000)  returns 0x00 (0000ms, 0581ms total)
T0E04 000:679 JLINK_WriteReg(R2, 0x000000FF)  returns 0x00 (0000ms, 0581ms total)
T0E04 000:679 JLINK_WriteReg(R3, 0x00000000)  returns 0x00 (0000ms, 0581ms total)
T0E04 000:679 JLINK_WriteReg(R4, 0x00000000)  returns 0x00 (0000ms, 0581ms total)
T0E04 000:679 JLINK_WriteReg(R5, 0x00000000)  returns 0x00 (0000ms, 0581ms total)
T0E04 000:679 JLINK_WriteReg(R6, 0x00000000)  returns 0x00 (0000ms, 0581ms total)
T0E04 000:679 JLINK_WriteReg(R7, 0x00000000)  returns 0x00 (0000ms, 0581ms total)
T0E04 000:679 JLINK_WriteReg(R8, 0x00000000)  returns 0x00 (0000ms, 0581ms total)
T0E04 000:679 JLINK_WriteReg(R9, 0x10000BAC)  returns 0x00 (0000ms, 0581ms total)
T0E04 000:679 JLINK_WriteReg(R10, 0x00000000)  returns 0x00 (0000ms, 0581ms total)
T0E04 000:679 JLINK_WriteReg(R11, 0x00000000)  returns 0x00 (0000ms, 0581ms total)
T0E04 000:679 JLINK_WriteReg(R12, 0x00000000)  returns 0x00 (0000ms, 0581ms total)
T0E04 000:679 JLINK_WriteReg(R13 (SP), 0x10008000)  returns 0x00 (0000ms, 0581ms total)
T0E04 000:679 JLINK_WriteReg(R14, 0x10000001)  returns 0x00 (0000ms, 0581ms total)
T0E04 000:679 JLINK_WriteReg(R15 (PC), 0x100001CC)  returns 0x00 (0000ms, 0581ms total)
T0E04 000:679 JLINK_WriteReg(XPSR, 0x01000000)  returns 0x00 (0000ms, 0581ms total)
T0E04 000:679 JLINK_WriteReg(MSP, 0x10008000)  returns 0x00 (0000ms, 0581ms total)
T0E04 000:679 JLINK_WriteReg(PSP, 0x10008000)  returns 0x00 (0000ms, 0581ms total)
T0E04 000:679 JLINK_WriteReg(CFBP, 0x00000000)  returns 0x00 (0000ms, 0581ms total)
T0E04 000:679 JLINK_SetBPEx(Addr = 0x10000000, Type = 0xFFFFFFF2)  returns 0x00000003 (0000ms, 0581ms total)
T0E04 000:679 JLINK_Go() -- CPU_WriteMem(4 bytes @ 0xE0002000) -- CPU_ReadMem(4 bytes @ 0xE0001000) -- CPU_WriteMem(4 bytes @ 0xE0001000) (0002ms, 0583ms total)
T0E04 000:681 JLINK_IsHalted()  returns TRUE (0003ms, 0586ms total)
T0E04 000:684 JLINK_ReadReg(R15 (PC))  returns 0x10000000 (0000ms, 0583ms total)
T0E04 000:684 JLINK_ClrBPEx(BPHandle = 0x00000003)  returns 0x00 (0000ms, 0583ms total)
T0E04 000:684 JLINK_ReadReg(R0)  returns 0x00000000 (0000ms, 0583ms total)
T0E04 000:684 JLINK_WriteReg(R0, 0x10001000)  returns 0x00 (0000ms, 0583ms total)
T0E04 000:684 JLINK_WriteReg(R1, 0x00001000)  returns 0x00 (0000ms, 0583ms total)
T0E04 000:684 JLINK_WriteReg(R2, 0x000000FF)  returns 0x00 (0000ms, 0583ms total)
T0E04 000:684 JLINK_WriteReg(R3, 0x00000000)  returns 0x00 (0000ms, 0583ms total)
T0E04 000:684 JLINK_WriteReg(R4, 0x00000000)  returns 0x00 (0000ms, 0583ms total)
T0E04 000:684 JLINK_WriteReg(R5, 0x00000000)  returns 0x00 (0000ms, 0583ms total)
T0E04 000:684 JLINK_WriteReg(R6, 0x00000000)  returns 0x00 (0000ms, 0583ms total)
T0E04 000:684 JLINK_WriteReg(R7, 0x00000000)  returns 0x00 (0000ms, 0583ms total)
T0E04 000:684 JLINK_WriteReg(R8, 0x00000000)  returns 0x00 (0000ms, 0583ms total)
T0E04 000:684 JLINK_WriteReg(R9, 0x10000BAC)  returns 0x00 (0000ms, 0583ms total)
T0E04 000:684 JLINK_WriteReg(R10, 0x00000000)  returns 0x00 (0000ms, 0583ms total)
T0E04 000:684 JLINK_WriteReg(R11, 0x00000000)  returns 0x00 (0000ms, 0583ms total)
T0E04 000:684 JLINK_WriteReg(R12, 0x00000000)  returns 0x00 (0000ms, 0583ms total)
T0E04 000:684 JLINK_WriteReg(R13 (SP), 0x10008000)  returns 0x00 (0000ms, 0583ms total)
T0E04 000:684 JLINK_WriteReg(R14, 0x10000001)  returns 0x00 (0000ms, 0583ms total)
T0E04 000:684 JLINK_WriteReg(R15 (PC), 0x10000020)  returns 0x00 (0000ms, 0583ms total)
T0E04 000:684 JLINK_WriteReg(XPSR, 0x01000000)  returns 0x00 (0000ms, 0583ms total)
T0E04 000:684 JLINK_WriteReg(MSP, 0x10008000)  returns 0x00 (0001ms, 0584ms total)
T0E04 000:685 JLINK_WriteReg(PSP, 0x10008000)  returns 0x00 (0000ms, 0584ms total)
T0E04 000:685 JLINK_WriteReg(CFBP, 0x00000000)  returns 0x00 (0000ms, 0584ms total)
T0E04 000:685 JLINK_SetBPEx(Addr = 0x10000000, Type = 0xFFFFFFF2)  returns 0x00000004 (0000ms, 0584ms total)
T0E04 000:685 JLINK_Go() -- CPU_WriteMem(4 bytes @ 0xE0002000) -- CPU_ReadMem(4 bytes @ 0xE0001000) -- CPU_WriteMem(4 bytes @ 0xE0001000) (0001ms, 0585ms total)
T0E04 000:686 JLINK_IsHalted()  returns TRUE (0003ms, 0588ms total)
T0E04 000:689 JLINK_ReadReg(R15 (PC))  returns 0x10000000 (0000ms, 0585ms total)
T0E04 000:689 JLINK_ClrBPEx(BPHandle = 0x00000004)  returns 0x00 (0000ms, 0585ms total)
T0E04 000:689 JLINK_ReadReg(R0)  returns 0x00000001 (0000ms, 0585ms total)
T0E04 000:689 JLINK_WriteReg(R0, 0x10001000)  returns 0x00 (0000ms, 0585ms total)
T0E04 000:689 JLINK_WriteReg(R1, 0x00001000)  returns 0x00 (0000ms, 0585ms total)
T0E04 000:689 JLINK_WriteReg(R2, 0x000000FF)  returns 0x00 (0000ms, 0585ms total)
T0E04 000:689 JLINK_WriteReg(R3, 0x00000000)  returns 0x00 (0000ms, 0585ms total)
T0E04 000:689 JLINK_WriteReg(R4, 0x00000000)  returns 0x00 (0000ms, 0585ms total)
T0E04 000:689 JLINK_WriteReg(R5, 0x00000000)  returns 0x00 (0000ms, 0585ms total)
T0E04 000:689 JLINK_WriteReg(R6, 0x00000000)  returns 0x00 (0000ms, 0585ms total)
T0E04 000:689 JLINK_WriteReg(R7, 0x00000000)  returns 0x00 (0000ms, 0585ms total)
T0E04 000:689 JLINK_WriteReg(R8, 0x00000000)  returns 0x00 (0000ms, 0585ms total)
T0E04 000:689 JLINK_WriteReg(R9, 0x10000BAC)  returns 0x00 (0000ms, 0585ms total)
T0E04 000:689 JLINK_WriteReg(R10, 0x00000000)  returns 0x00 (0000ms, 0585ms total)
T0E04 000:689 JLINK_WriteReg(R11, 0x00000000)  returns 0x00 (0000ms, 0585ms total)
T0E04 000:689 JLINK_WriteReg(R12, 0x00000000)  returns 0x00 (0000ms, 0585ms total)
T0E04 000:689 JLINK_WriteReg(R13 (SP), 0x10008000)  returns 0x00 (0000ms, 0585ms total)
T0E04 000:689 JLINK_WriteReg(R14, 0x10000001)  returns 0x00 (0000ms, 0585ms total)
T0E04 000:689 JLINK_WriteReg(R15 (PC), 0x100001CC)  returns 0x00 (0000ms, 0585ms total)
T0E04 000:689 JLINK_WriteReg(XPSR, 0x01000000)  returns 0x00 (0000ms, 0585ms total)
T0E04 000:689 JLINK_WriteReg(MSP, 0x10008000)  returns 0x00 (0000ms, 0585ms total)
T0E04 000:689 JLINK_WriteReg(PSP, 0x10008000)  returns 0x00 (0000ms, 0585ms total)
T0E04 000:689 JLINK_WriteReg(CFBP, 0x00000000)  returns 0x00 (0000ms, 0585ms total)
T0E04 000:689 JLINK_SetBPEx(Addr = 0x10000000, Type = 0xFFFFFFF2)  returns 0x00000005 (0000ms, 0585ms total)
T0E04 000:689 JLINK_Go() -- CPU_WriteMem(4 bytes @ 0xE0002000) -- CPU_ReadMem(4 bytes @ 0xE0001000) -- CPU_WriteMem(4 bytes @ 0xE0001000) (0002ms, 0587ms total)
T0E04 000:691 JLINK_IsHalted()  returns TRUE (0002ms, 0589ms total)
T0E04 000:693 JLINK_ReadReg(R15 (PC))  returns 0x10000000 (0000ms, 0587ms total)
T0E04 000:693 JLINK_ClrBPEx(BPHandle = 0x00000005)  returns 0x00 (0000ms, 0587ms total)
T0E04 000:693 JLINK_ReadReg(R0)  returns 0x00000000 (0000ms, 0587ms total)
T0E04 000:694 JLINK_WriteReg(R0, 0x10002000)  returns 0x00 (0000ms, 0587ms total)
T0E04 000:694 JLINK_WriteReg(R1, 0x00001000)  returns 0x00 (0000ms, 0587ms total)
T0E04 000:694 JLINK_WriteReg(R2, 0x000000FF)  returns 0x00 (0000ms, 0587ms total)
T0E04 000:694 JLINK_WriteReg(R3, 0x00000000)  returns 0x00 (0000ms, 0587ms total)
T0E04 000:694 JLINK_WriteReg(R4, 0x00000000)  returns 0x00 (0000ms, 0587ms total)
T0E04 000:694 JLINK_WriteReg(R5, 0x00000000)  returns 0x00 (0000ms, 0587ms total)
T0E04 000:694 JLINK_WriteReg(R6, 0x00000000)  returns 0x00 (0000ms, 0587ms total)
T0E04 000:694 JLINK_WriteReg(R7, 0x00000000)  returns 0x00 (0000ms, 0587ms total)
T0E04 000:694 JLINK_WriteReg(R8, 0x00000000)  returns 0x00 (0000ms, 0587ms total)
T0E04 000:694 JLINK_WriteReg(R9, 0x10000BAC)  returns 0x00 (0000ms, 0587ms total)
T0E04 000:694 JLINK_WriteReg(R10, 0x00000000)  returns 0x00 (0000ms, 0587ms total)
T0E04 000:694 JLINK_WriteReg(R11, 0x00000000)  returns 0x00 (0000ms, 0587ms total)
T0E04 000:694 JLINK_WriteReg(R12, 0x00000000)  returns 0x00 (0000ms, 0587ms total)
T0E04 000:694 JLINK_WriteReg(R13 (SP), 0x10008000)  returns 0x00 (0000ms, 0587ms total)
T0E04 000:694 JLINK_WriteReg(R14, 0x10000001)  returns 0x00 (0000ms, 0587ms total)
T0E04 000:694 JLINK_WriteReg(R15 (PC), 0x10000020)  returns 0x00 (0000ms, 0587ms total)
T0E04 000:694 JLINK_WriteReg(XPSR, 0x01000000)  returns 0x00 (0000ms, 0587ms total)
T0E04 000:694 JLINK_WriteReg(MSP, 0x10008000)  returns 0x00 (0000ms, 0587ms total)
T0E04 000:694 JLINK_WriteReg(PSP, 0x10008000)  returns 0x00 (0000ms, 0587ms total)
T0E04 000:694 JLINK_WriteReg(CFBP, 0x00000000)  returns 0x00 (0000ms, 0587ms total)
T0E04 000:694 JLINK_SetBPEx(Addr = 0x10000000, Type = 0xFFFFFFF2)  returns 0x00000006 (0000ms, 0587ms total)
T0E04 000:694 JLINK_Go() -- CPU_WriteMem(4 bytes @ 0xE0002000) -- CPU_ReadMem(4 bytes @ 0xE0001000) -- CPU_WriteMem(4 bytes @ 0xE0001000) (0001ms, 0588ms total)
T0E04 000:695 JLINK_IsHalted()  returns TRUE (0003ms, 0591ms total)
T0E04 000:698 JLINK_ReadReg(R15 (PC))  returns 0x10000000 (0000ms, 0588ms total)
T0E04 000:698 JLINK_ClrBPEx(BPHandle = 0x00000006)  returns 0x00 (0000ms, 0588ms total)
T0E04 000:698 JLINK_ReadReg(R0)  returns 0x00000001 (0000ms, 0588ms total)
T0E04 000:698 JLINK_WriteReg(R0, 0x10002000)  returns 0x00 (0000ms, 0588ms total)
T0E04 000:698 JLINK_WriteReg(R1, 0x00001000)  returns 0x00 (0000ms, 0588ms total)
T0E04 000:698 JLINK_WriteReg(R2, 0x000000FF)  returns 0x00 (0000ms, 0588ms total)
T0E04 000:698 JLINK_WriteReg(R3, 0x00000000)  returns 0x00 (0000ms, 0588ms total)
T0E04 000:698 JLINK_WriteReg(R4, 0x00000000)  returns 0x00 (0000ms, 0588ms total)
T0E04 000:698 JLINK_WriteReg(R5, 0x00000000)  returns 0x00 (0000ms, 0588ms total)
T0E04 000:698 JLINK_WriteReg(R6, 0x00000000)  returns 0x00 (0000ms, 0588ms total)
T0E04 000:698 JLINK_WriteReg(R7, 0x00000000)  returns 0x00 (0000ms, 0588ms total)
T0E04 000:698 JLINK_WriteReg(R8, 0x00000000)  returns 0x00 (0000ms, 0588ms total)
T0E04 000:698 JLINK_WriteReg(R9, 0x10000BAC)  returns 0x00 (0000ms, 0588ms total)
T0E04 000:698 JLINK_WriteReg(R10, 0x00000000)  returns 0x00 (0000ms, 0588ms total)
T0E04 000:698 JLINK_WriteReg(R11, 0x00000000)  returns 0x00 (0000ms, 0588ms total)
T0E04 000:698 JLINK_WriteReg(R12, 0x00000000)  returns 0x00 (0000ms, 0588ms total)
T0E04 000:698 JLINK_WriteReg(R13 (SP), 0x10008000)  returns 0x00 (0000ms, 0588ms total)
T0E04 000:698 JLINK_WriteReg(R14, 0x10000001)  returns 0x00 (0000ms, 0588ms total)
T0E04 000:698 JLINK_WriteReg(R15 (PC), 0x100001CC)  returns 0x00 (0000ms, 0588ms total)
T0E04 000:698 JLINK_WriteReg(XPSR, 0x01000000)  returns 0x00 (0000ms, 0588ms total)
T0E04 000:698 JLINK_WriteReg(MSP, 0x10008000)  returns 0x00 (0000ms, 0588ms total)
T0E04 000:698 JLINK_WriteReg(PSP, 0x10008000)  returns 0x00 (0000ms, 0588ms total)
T0E04 000:698 JLINK_WriteReg(CFBP, 0x00000000)  returns 0x00 (0000ms, 0588ms total)
T0E04 000:698 JLINK_SetBPEx(Addr = 0x10000000, Type = 0xFFFFFFF2)  returns 0x00000007 (0000ms, 0588ms total)
T0E04 000:698 JLINK_Go() -- CPU_WriteMem(4 bytes @ 0xE0002000) -- CPU_ReadMem(4 bytes @ 0xE0001000) -- CPU_WriteMem(4 bytes @ 0xE0001000) (0002ms, 0590ms total)
T0E04 000:700 JLINK_IsHalted()  returns TRUE (0003ms, 0593ms total)
T0E04 000:703 JLINK_ReadReg(R15 (PC))  returns 0x10000000 (0000ms, 0590ms total)
T0E04 000:703 JLINK_ClrBPEx(BPHandle = 0x00000007)  returns 0x00 (0000ms, 0590ms total)
T0E04 000:703 JLINK_ReadReg(R0)  returns 0x00000000 (0000ms, 0590ms total)
T0E04 000:703 JLINK_WriteReg(R0, 0x10003000)  returns 0x00 (0000ms, 0590ms total)
T0E04 000:703 JLINK_WriteReg(R1, 0x00001000)  returns 0x00 (0000ms, 0590ms total)
T0E04 000:703 JLINK_WriteReg(R2, 0x000000FF)  returns 0x00 (0000ms, 0590ms total)
T0E04 000:703 JLINK_WriteReg(R3, 0x00000000)  returns 0x00 (0000ms, 0590ms total)
T0E04 000:703 JLINK_WriteReg(R4, 0x00000000)  returns 0x00 (0000ms, 0590ms total)
T0E04 000:703 JLINK_WriteReg(R5, 0x00000000)  returns 0x00 (0000ms, 0590ms total)
T0E04 000:703 JLINK_WriteReg(R6, 0x00000000)  returns 0x00 (0000ms, 0590ms total)
T0E04 000:703 JLINK_WriteReg(R7, 0x00000000)  returns 0x00 (0000ms, 0590ms total)
T0E04 000:703 JLINK_WriteReg(R8, 0x00000000)  returns 0x00 (0000ms, 0590ms total)
T0E04 000:703 JLINK_WriteReg(R9, 0x10000BAC)  returns 0x00 (0000ms, 0590ms total)
T0E04 000:703 JLINK_WriteReg(R10, 0x00000000)  returns 0x00 (0000ms, 0590ms total)
T0E04 000:703 JLINK_WriteReg(R11, 0x00000000)  returns 0x00 (0000ms, 0590ms total)
T0E04 000:703 JLINK_WriteReg(R12, 0x00000000)  returns 0x00 (0000ms, 0590ms total)
T0E04 000:703 JLINK_WriteReg(R13 (SP), 0x10008000)  returns 0x00 (0000ms, 0590ms total)
T0E04 000:703 JLINK_WriteReg(R14, 0x10000001)  returns 0x00 (0000ms, 0590ms total)
T0E04 000:703 JLINK_WriteReg(R15 (PC), 0x10000020)  returns 0x00 (0000ms, 0590ms total)
T0E04 000:703 JLINK_WriteReg(XPSR, 0x01000000)  returns 0x00 (0000ms, 0590ms total)
T0E04 000:703 JLINK_WriteReg(MSP, 0x10008000)  returns 0x00 (0000ms, 0590ms total)
T0E04 000:703 JLINK_WriteReg(PSP, 0x10008000)  returns 0x00 (0000ms, 0590ms total)
T0E04 000:703 JLINK_WriteReg(CFBP, 0x00000000)  returns 0x00 (0000ms, 0590ms total)
T0E04 000:703 JLINK_SetBPEx(Addr = 0x10000000, Type = 0xFFFFFFF2)  returns 0x00000008 (0000ms, 0590ms total)
T0E04 000:703 JLINK_Go() -- CPU_WriteMem(4 bytes @ 0xE0002000) -- CPU_ReadMem(4 bytes @ 0xE0001000) -- CPU_WriteMem(4 bytes @ 0xE0001000) (0002ms, 0592ms total)
T0E04 000:705 JLINK_IsHalted()  returns TRUE (0002ms, 0594ms total)
T0E04 000:707 JLINK_ReadReg(R15 (PC))  returns 0x10000000 (0000ms, 0592ms total)
T0E04 000:707 JLINK_ClrBPEx(BPHandle = 0x00000008)  returns 0x00 (0000ms, 0592ms total)
T0E04 000:707 JLINK_ReadReg(R0)  returns 0x00000001 (0000ms, 0592ms total)
T0E04 000:707 JLINK_WriteReg(R0, 0x10003000)  returns 0x00 (0000ms, 0592ms total)
T0E04 000:707 JLINK_WriteReg(R1, 0x00001000)  returns 0x00 (0000ms, 0592ms total)
T0E04 000:707 JLINK_WriteReg(R2, 0x000000FF)  returns 0x00 (0000ms, 0592ms total)
T0E04 000:708 JLINK_WriteReg(R3, 0x00000000)  returns 0x00 (0000ms, 0593ms total)
T0E04 000:708 JLINK_WriteReg(R4, 0x00000000)  returns 0x00 (0000ms, 0593ms total)
T0E04 000:708 JLINK_WriteReg(R5, 0x00000000)  returns 0x00 (0000ms, 0593ms total)
T0E04 000:708 JLINK_WriteReg(R6, 0x00000000)  returns 0x00 (0000ms, 0593ms total)
T0E04 000:708 JLINK_WriteReg(R7, 0x00000000)  returns 0x00 (0000ms, 0593ms total)
T0E04 000:708 JLINK_WriteReg(R8, 0x00000000)  returns 0x00 (0000ms, 0593ms total)
T0E04 000:708 JLINK_WriteReg(R9, 0x10000BAC)  returns 0x00 (0000ms, 0593ms total)
T0E04 000:708 JLINK_WriteReg(R10, 0x00000000)  returns 0x00 (0000ms, 0593ms total)
T0E04 000:708 JLINK_WriteReg(R11, 0x00000000)  returns 0x00 (0000ms, 0593ms total)
T0E04 000:708 JLINK_WriteReg(R12, 0x00000000)  returns 0x00 (0000ms, 0593ms total)
T0E04 000:708 JLINK_WriteReg(R13 (SP), 0x10008000)  returns 0x00 (0000ms, 0593ms total)
T0E04 000:708 JLINK_WriteReg(R14, 0x10000001)  returns 0x00 (0000ms, 0593ms total)
T0E04 000:708 JLINK_WriteReg(R15 (PC), 0x100001CC)  returns 0x00 (0000ms, 0593ms total)
T0E04 000:708 JLINK_WriteReg(XPSR, 0x01000000)  returns 0x00 (0000ms, 0593ms total)
T0E04 000:708 JLINK_WriteReg(MSP, 0x10008000)  returns 0x00 (0000ms, 0593ms total)
T0E04 000:708 JLINK_WriteReg(PSP, 0x10008000)  returns 0x00 (0000ms, 0593ms total)
T0E04 000:708 JLINK_WriteReg(CFBP, 0x00000000)  returns 0x00 (0000ms, 0593ms total)
T0E04 000:708 JLINK_SetBPEx(Addr = 0x10000000, Type = 0xFFFFFFF2)  returns 0x00000009 (0000ms, 0593ms total)
T0E04 000:708 JLINK_Go() -- CPU_WriteMem(4 bytes @ 0xE0002000) -- CPU_ReadMem(4 bytes @ 0xE0001000) -- CPU_WriteMem(4 bytes @ 0xE0001000) (0001ms, 0594ms total)
T0E04 000:709 JLINK_IsHalted()  returns TRUE (0003ms, 0597ms total)
T0E04 000:712 JLINK_ReadReg(R15 (PC))  returns 0x10000000 (0000ms, 0594ms total)
T0E04 000:712 JLINK_ClrBPEx(BPHandle = 0x00000009)  returns 0x00 (0000ms, 0594ms total)
T0E04 000:712 JLINK_ReadReg(R0)  returns 0x00000000 (0000ms, 0594ms total)
T0E04 000:712 JLINK_WriteReg(R0, 0x10004000)  returns 0x00 (0000ms, 0594ms total)
T0E04 000:712 JLINK_WriteReg(R1, 0x00001000)  returns 0x00 (0000ms, 0594ms total)
T0E04 000:712 JLINK_WriteReg(R2, 0x000000FF)  returns 0x00 (0000ms, 0594ms total)
T0E04 000:712 JLINK_WriteReg(R3, 0x00000000)  returns 0x00 (0000ms, 0594ms total)
T0E04 000:712 JLINK_WriteReg(R4, 0x00000000)  returns 0x00 (0000ms, 0594ms total)
T0E04 000:712 JLINK_WriteReg(R5, 0x00000000)  returns 0x00 (0000ms, 0594ms total)
T0E04 000:712 JLINK_WriteReg(R6, 0x00000000)  returns 0x00 (0000ms, 0594ms total)
T0E04 000:712 JLINK_WriteReg(R7, 0x00000000)  returns 0x00 (0000ms, 0594ms total)
T0E04 000:712 JLINK_WriteReg(R8, 0x00000000)  returns 0x00 (0000ms, 0594ms total)
T0E04 000:712 JLINK_WriteReg(R9, 0x10000BAC)  returns 0x00 (0000ms, 0594ms total)
T0E04 000:712 JLINK_WriteReg(R10, 0x00000000)  returns 0x00 (0000ms, 0594ms total)
T0E04 000:712 JLINK_WriteReg(R11, 0x00000000)  returns 0x00 (0000ms, 0594ms total)
T0E04 000:712 JLINK_WriteReg(R12, 0x00000000)  returns 0x00 (0000ms, 0594ms total)
T0E04 000:712 JLINK_WriteReg(R13 (SP), 0x10008000)  returns 0x00 (0000ms, 0594ms total)
T0E04 000:712 JLINK_WriteReg(R14, 0x10000001)  returns 0x00 (0000ms, 0594ms total)
T0E04 000:712 JLINK_WriteReg(R15 (PC), 0x10000020)  returns 0x00 (0000ms, 0594ms total)
T0E04 000:712 JLINK_WriteReg(XPSR, 0x01000000)  returns 0x00 (0000ms, 0594ms total)
T0E04 000:712 JLINK_WriteReg(MSP, 0x10008000)  returns 0x00 (0001ms, 0595ms total)
T0E04 000:713 JLINK_WriteReg(PSP, 0x10008000)  returns 0x00 (0000ms, 0595ms total)
T0E04 000:713 JLINK_WriteReg(CFBP, 0x00000000)  returns 0x00 (0000ms, 0595ms total)
T0E04 000:713 JLINK_SetBPEx(Addr = 0x10000000, Type = 0xFFFFFFF2)  returns 0x0000000A (0000ms, 0595ms total)
T0E04 000:713 JLINK_Go() -- CPU_WriteMem(4 bytes @ 0xE0002000) -- CPU_ReadMem(4 bytes @ 0xE0001000) -- CPU_WriteMem(4 bytes @ 0xE0001000) (0001ms, 0596ms total)
T0E04 000:714 JLINK_IsHalted()  returns TRUE (0003ms, 0599ms total)
T0E04 000:717 JLINK_ReadReg(R15 (PC))  returns 0x10000000 (0000ms, 0596ms total)
T0E04 000:717 JLINK_ClrBPEx(BPHandle = 0x0000000A)  returns 0x00 (0000ms, 0596ms total)
T0E04 000:717 JLINK_ReadReg(R0)  returns 0x00000001 (0000ms, 0596ms total)
T0E04 000:717 JLINK_WriteReg(R0, 0x10004000)  returns 0x00 (0000ms, 0596ms total)
T0E04 000:717 JLINK_WriteReg(R1, 0x00001000)  returns 0x00 (0000ms, 0596ms total)
T0E04 000:717 JLINK_WriteReg(R2, 0x000000FF)  returns 0x00 (0000ms, 0596ms total)
T0E04 000:717 JLINK_WriteReg(R3, 0x00000000)  returns 0x00 (0000ms, 0596ms total)
T0E04 000:717 JLINK_WriteReg(R4, 0x00000000)  returns 0x00 (0000ms, 0596ms total)
T0E04 000:717 JLINK_WriteReg(R5, 0x00000000)  returns 0x00 (0000ms, 0596ms total)
T0E04 000:717 JLINK_WriteReg(R6, 0x00000000)  returns 0x00 (0000ms, 0596ms total)
T0E04 000:717 JLINK_WriteReg(R7, 0x00000000)  returns 0x00 (0000ms, 0596ms total)
T0E04 000:717 JLINK_WriteReg(R8, 0x00000000)  returns 0x00 (0000ms, 0596ms total)
T0E04 000:717 JLINK_WriteReg(R9, 0x10000BAC)  returns 0x00 (0000ms, 0596ms total)
T0E04 000:717 JLINK_WriteReg(R10, 0x00000000)  returns 0x00 (0000ms, 0596ms total)
T0E04 000:717 JLINK_WriteReg(R11, 0x00000000)  returns 0x00 (0000ms, 0596ms total)
T0E04 000:717 JLINK_WriteReg(R12, 0x00000000)  returns 0x00 (0000ms, 0596ms total)
T0E04 000:717 JLINK_WriteReg(R13 (SP), 0x10008000)  returns 0x00 (0000ms, 0596ms total)
T0E04 000:717 JLINK_WriteReg(R14, 0x10000001)  returns 0x00 (0000ms, 0596ms total)
T0E04 000:717 JLINK_WriteReg(R15 (PC), 0x100001CC)  returns 0x00 (0000ms, 0596ms total)
T0E04 000:717 JLINK_WriteReg(XPSR, 0x01000000)  returns 0x00 (0000ms, 0596ms total)
T0E04 000:717 JLINK_WriteReg(MSP, 0x10008000)  returns 0x00 (0000ms, 0596ms total)
T0E04 000:717 JLINK_WriteReg(PSP, 0x10008000)  returns 0x00 (0000ms, 0596ms total)
T0E04 000:717 JLINK_WriteReg(CFBP, 0x00000000)  returns 0x00 (0000ms, 0596ms total)
T0E04 000:717 JLINK_SetBPEx(Addr = 0x10000000, Type = 0xFFFFFFF2)  returns 0x0000000B (0000ms, 0596ms total)
T0E04 000:717 JLINK_Go() -- CPU_WriteMem(4 bytes @ 0xE0002000) -- CPU_ReadMem(4 bytes @ 0xE0001000) -- CPU_WriteMem(4 bytes @ 0xE0001000) (0002ms, 0598ms total)
T0E04 000:719 JLINK_IsHalted()  returns TRUE (0002ms, 0600ms total)
T0E04 000:721 JLINK_ReadReg(R15 (PC))  returns 0x10000000 (0000ms, 0598ms total)
T0E04 000:721 JLINK_ClrBPEx(BPHandle = 0x0000000B)  returns 0x00 (0000ms, 0598ms total)
T0E04 000:721 JLINK_ReadReg(R0)  returns 0x00000000 (0000ms, 0598ms total)
T0E04 000:722 JLINK_WriteReg(R0, 0x10005000)  returns 0x00 (0000ms, 0598ms total)
T0E04 000:722 JLINK_WriteReg(R1, 0x00001000)  returns 0x00 (0000ms, 0598ms total)
T0E04 000:722 JLINK_WriteReg(R2, 0x000000FF)  returns 0x00 (0000ms, 0598ms total)
T0E04 000:722 JLINK_WriteReg(R3, 0x00000000)  returns 0x00 (0000ms, 0598ms total)
T0E04 000:722 JLINK_WriteReg(R4, 0x00000000)  returns 0x00 (0000ms, 0598ms total)
T0E04 000:722 JLINK_WriteReg(R5, 0x00000000)  returns 0x00 (0000ms, 0598ms total)
T0E04 000:722 JLINK_WriteReg(R6, 0x00000000)  returns 0x00 (0000ms, 0598ms total)
T0E04 000:722 JLINK_WriteReg(R7, 0x00000000)  returns 0x00 (0000ms, 0598ms total)
T0E04 000:722 JLINK_WriteReg(R8, 0x00000000)  returns 0x00 (0000ms, 0598ms total)
T0E04 000:722 JLINK_WriteReg(R9, 0x10000BAC)  returns 0x00 (0000ms, 0598ms total)
T0E04 000:722 JLINK_WriteReg(R10, 0x00000000)  returns 0x00 (0000ms, 0598ms total)
T0E04 000:722 JLINK_WriteReg(R11, 0x00000000)  returns 0x00 (0000ms, 0598ms total)
T0E04 000:722 JLINK_WriteReg(R12, 0x00000000)  returns 0x00 (0000ms, 0598ms total)
T0E04 000:722 JLINK_WriteReg(R13 (SP), 0x10008000)  returns 0x00 (0000ms, 0598ms total)
T0E04 000:722 JLINK_WriteReg(R14, 0x10000001)  returns 0x00 (0000ms, 0598ms total)
T0E04 000:722 JLINK_WriteReg(R15 (PC), 0x10000020)  returns 0x00 (0000ms, 0598ms total)
T0E04 000:722 JLINK_WriteReg(XPSR, 0x01000000)  returns 0x00 (0000ms, 0598ms total)
T0E04 000:722 JLINK_WriteReg(MSP, 0x10008000)  returns 0x00 (0000ms, 0598ms total)
T0E04 000:722 JLINK_WriteReg(PSP, 0x10008000)  returns 0x00 (0000ms, 0598ms total)
T0E04 000:722 JLINK_WriteReg(CFBP, 0x00000000)  returns 0x00 (0000ms, 0598ms total)
T0E04 000:722 JLINK_SetBPEx(Addr = 0x10000000, Type = 0xFFFFFFF2)  returns 0x0000000C (0000ms, 0598ms total)
T0E04 000:722 JLINK_Go() -- CPU_WriteMem(4 bytes @ 0xE0002000) -- CPU_ReadMem(4 bytes @ 0xE0001000) -- CPU_WriteMem(4 bytes @ 0xE0001000) (0002ms, 0600ms total)
T0E04 000:724 JLINK_IsHalted()  returns TRUE (0002ms, 0602ms total)
T0E04 000:726 JLINK_ReadReg(R15 (PC))  returns 0x10000000 (0000ms, 0600ms total)
T0E04 000:726 JLINK_ClrBPEx(BPHandle = 0x0000000C)  returns 0x00 (0000ms, 0600ms total)
T0E04 000:726 JLINK_ReadReg(R0)  returns 0x00000001 (0000ms, 0600ms total)
T0E04 000:726 JLINK_WriteReg(R0, 0x10005000)  returns 0x00 (0000ms, 0600ms total)
T0E04 000:726 JLINK_WriteReg(R1, 0x00001000)  returns 0x00 (0000ms, 0600ms total)
T0E04 000:726 JLINK_WriteReg(R2, 0x000000FF)  returns 0x00 (0000ms, 0600ms total)
T0E04 000:726 JLINK_WriteReg(R3, 0x00000000)  returns 0x00 (0000ms, 0600ms total)
T0E04 000:726 JLINK_WriteReg(R4, 0x00000000)  returns 0x00 (0000ms, 0600ms total)
T0E04 000:726 JLINK_WriteReg(R5, 0x00000000)  returns 0x00 (0000ms, 0600ms total)
T0E04 000:726 JLINK_WriteReg(R6, 0x00000000)  returns 0x00 (0000ms, 0600ms total)
T0E04 000:726 JLINK_WriteReg(R7, 0x00000000)  returns 0x00 (0000ms, 0600ms total)
T0E04 000:726 JLINK_WriteReg(R8, 0x00000000)  returns 0x00 (0000ms, 0600ms total)
T0E04 000:726 JLINK_WriteReg(R9, 0x10000BAC)  returns 0x00 (0000ms, 0600ms total)
T0E04 000:726 JLINK_WriteReg(R10, 0x00000000)  returns 0x00 (0000ms, 0600ms total)
T0E04 000:726 JLINK_WriteReg(R11, 0x00000000)  returns 0x00 (0000ms, 0600ms total)
T0E04 000:727 JLINK_WriteReg(R12, 0x00000000)  returns 0x00 (0000ms, 0601ms total)
T0E04 000:727 JLINK_WriteReg(R13 (SP), 0x10008000)  returns 0x00 (0000ms, 0601ms total)
T0E04 000:727 JLINK_WriteReg(R14, 0x10000001)  returns 0x00 (0000ms, 0601ms total)
T0E04 000:727 JLINK_WriteReg(R15 (PC), 0x100001CC)  returns 0x00 (0000ms, 0601ms total)
T0E04 000:727 JLINK_WriteReg(XPSR, 0x01000000)  returns 0x00 (0000ms, 0601ms total)
T0E04 000:727 JLINK_WriteReg(MSP, 0x10008000)  returns 0x00 (0000ms, 0601ms total)
T0E04 000:727 JLINK_WriteReg(PSP, 0x10008000)  returns 0x00 (0000ms, 0601ms total)
T0E04 000:727 JLINK_WriteReg(CFBP, 0x00000000)  returns 0x00 (0000ms, 0601ms total)
T0E04 000:727 JLINK_SetBPEx(Addr = 0x10000000, Type = 0xFFFFFFF2)  returns 0x0000000D (0000ms, 0601ms total)
T0E04 000:727 JLINK_Go() -- CPU_WriteMem(4 bytes @ 0xE0002000) -- CPU_ReadMem(4 bytes @ 0xE0001000) -- CPU_WriteMem(4 bytes @ 0xE0001000) (0001ms, 0602ms total)
T0E04 000:728 JLINK_IsHalted()  returns TRUE (0005ms, 0607ms total)
T0E04 000:733 JLINK_ReadReg(R15 (PC))  returns 0x10000000 (0000ms, 0602ms total)
T0E04 000:733 JLINK_ClrBPEx(BPHandle = 0x0000000D)  returns 0x00 (0000ms, 0602ms total)
T0E04 000:733 JLINK_ReadReg(R0)  returns 0x00000000 (0000ms, 0602ms total)
T0E04 000:734 JLINK_WriteReg(R0, 0x00000001)  returns 0x00 (0000ms, 0602ms total)
T0E04 000:734 JLINK_WriteReg(R1, 0x00001000)  returns 0x00 (0000ms, 0602ms total)
T0E04 000:734 JLINK_WriteReg(R2, 0x000000FF)  returns 0x00 (0000ms, 0602ms total)
T0E04 000:734 JLINK_WriteReg(R3, 0x00000000)  returns 0x00 (0000ms, 0602ms total)
T0E04 000:734 JLINK_WriteReg(R4, 0x00000000)  returns 0x00 (0000ms, 0602ms total)
T0E04 000:734 JLINK_WriteReg(R5, 0x00000000)  returns 0x00 (0000ms, 0602ms total)
T0E04 000:734 JLINK_WriteReg(R6, 0x00000000)  returns 0x00 (0000ms, 0602ms total)
T0E04 000:734 JLINK_WriteReg(R7, 0x00000000)  returns 0x00 (0000ms, 0602ms total)
T0E04 000:734 JLINK_WriteReg(R8, 0x00000000)  returns 0x00 (0000ms, 0602ms total)
T0E04 000:734 JLINK_WriteReg(R9, 0x10000BAC)  returns 0x00 (0000ms, 0602ms total)
T0E04 000:734 JLINK_WriteReg(R10, 0x00000000)  returns 0x00 (0000ms, 0602ms total)
T0E04 000:734 JLINK_WriteReg(R11, 0x00000000)  returns 0x00 (0000ms, 0602ms total)
T0E04 000:734 JLINK_WriteReg(R12, 0x00000000)  returns 0x00 (0000ms, 0602ms total)
T0E04 000:734 JLINK_WriteReg(R13 (SP), 0x10008000)  returns 0x00 (0000ms, 0602ms total)
T0E04 000:734 JLINK_WriteReg(R14, 0x10000001)  returns 0x00 (0000ms, 0602ms total)
T0E04 000:734 JLINK_WriteReg(R15 (PC), 0x100003FC)  returns 0x00 (0000ms, 0602ms total)
T0E04 000:734 JLINK_WriteReg(XPSR, 0x01000000)  returns 0x00 (0000ms, 0602ms total)
T0E04 000:734 JLINK_WriteReg(MSP, 0x10008000)  returns 0x00 (0000ms, 0602ms total)
T0E04 000:734 JLINK_WriteReg(PSP, 0x10008000)  returns 0x00 (0000ms, 0602ms total)
T0E04 000:734 JLINK_WriteReg(CFBP, 0x00000000)  returns 0x00 (0000ms, 0602ms total)
T0E04 000:734 JLINK_SetBPEx(Addr = 0x10000000, Type = 0xFFFFFFF2)  returns 0x0000000E (0000ms, 0602ms total)
T0E04 000:734 JLINK_Go() -- CPU_WriteMem(4 bytes @ 0xE0002000) -- CPU_ReadMem(4 bytes @ 0xE0001000) -- CPU_WriteMem(4 bytes @ 0xE0001000) (0002ms, 0604ms total)
T0E04 000:736 JLINK_IsHalted()  returns TRUE (0002ms, 0606ms total)
T0E04 000:738 JLINK_ReadReg(R15 (PC))  returns 0x10000000 (0000ms, 0604ms total)
T0E04 000:738 JLINK_ClrBPEx(BPHandle = 0x0000000E)  returns 0x00 (0000ms, 0604ms total)
T0E04 000:738 JLINK_ReadReg(R0)  returns 0x00000000 (0000ms, 0604ms total)
T0E04 000:792 JLINK_WriteMem(0x10000000, 0x0BE0 Bytes, ...) - Data: 00 BE 0A E0 0D 78 2D 06 68 40 08 24 40 00 00 D3 ... -- CPU_WriteMem(3040 bytes @ 0x10000000)  returns 0xBE0 (0017ms, 0621ms total)
T0E04 000:809 JLINK_WriteReg(R0, 0x10000000)  returns 0x00 (0000ms, 0621ms total)
T0E04 000:809 JLINK_WriteReg(R1, 0x00F42400)  returns 0x00 (0000ms, 0621ms total)
T0E04 000:809 JLINK_WriteReg(R2, 0x00000002)  returns 0x00 (0000ms, 0621ms total)
T0E04 000:809 JLINK_WriteReg(R3, 0x00000000)  returns 0x00 (0000ms, 0621ms total)
T0E04 000:809 JLINK_WriteReg(R4, 0x00000000)  returns 0x00 (0000ms, 0621ms total)
T0E04 000:809 JLINK_WriteReg(R5, 0x00000000)  returns 0x00 (0000ms, 0621ms total)
T0E04 000:809 JLINK_WriteReg(R6, 0x00000000)  returns 0x00 (0000ms, 0621ms total)
T0E04 000:809 JLINK_WriteReg(R7, 0x00000000)  returns 0x00 (0000ms, 0621ms total)
T0E04 000:809 JLINK_WriteReg(R8, 0x00000000)  returns 0x00 (0000ms, 0621ms total)
T0E04 000:809 JLINK_WriteReg(R9, 0x10000BAC)  returns 0x00 (0000ms, 0621ms total)
T0E04 000:809 JLINK_WriteReg(R10, 0x00000000)  returns 0x00 (0000ms, 0621ms total)
T0E04 000:809 JLINK_WriteReg(R11, 0x00000000)  returns 0x00 (0000ms, 0621ms total)
T0E04 000:809 JLINK_WriteReg(R12, 0x00000000)  returns 0x00 (0000ms, 0621ms total)
T0E04 000:809 JLINK_WriteReg(R13 (SP), 0x10008000)  returns 0x00 (0000ms, 0621ms total)
T0E04 000:809 JLINK_WriteReg(R14, 0x10000001)  returns 0x00 (0000ms, 0621ms total)
T0E04 000:809 JLINK_WriteReg(R15 (PC), 0x100001F4)  returns 0x00 (0000ms, 0621ms total)
T0E04 000:809 JLINK_WriteReg(XPSR, 0x01000000)  returns 0x00 (0000ms, 0621ms total)
T0E04 000:809 JLINK_WriteReg(MSP, 0x10008000)  returns 0x00 (0000ms, 0621ms total)
T0E04 000:809 JLINK_WriteReg(PSP, 0x10008000)  returns 0x00 (0000ms, 0621ms total)
T0E04 000:809 JLINK_WriteReg(CFBP, 0x00000000)  returns 0x00 (0000ms, 0621ms total)
T0E04 000:809 JLINK_SetBPEx(Addr = 0x10000000, Type = 0xFFFFFFF2)  returns 0x0000000F (0000ms, 0621ms total)
T0E04 000:809 JLINK_Go() -- CPU_WriteMem(4 bytes @ 0xE0002000) -- CPU_ReadMem(4 bytes @ 0xE0001000) -- CPU_WriteMem(4 bytes @ 0xE0001000) (0002ms, 0623ms total)
T0E04 000:811 JLINK_IsHalted()  returns TRUE (0003ms, 0626ms total)
T0E04 000:814 JLINK_ReadReg(R15 (PC))  returns 0x10000000 (0000ms, 0623ms total)
T0E04 000:814 JLINK_ClrBPEx(BPHandle = 0x0000000F)  returns 0x00 (0000ms, 0623ms total)
T0E04 000:814 JLINK_ReadReg(R0)  returns 0x00000000 (0000ms, 0623ms total)
T0E04 000:814 JLINK_WriteMem(0x10001BE0, 0x0020 Bytes, ...) - Data: 80 6B 00 10 D5 00 00 10 E3 00 00 10 E5 00 00 10 ... -- CPU_WriteMem(32 bytes @ 0x10001BE0)  returns 0x20 (0000ms, 0623ms total)
T0E04 000:814 JLINK_WriteMem(0x10001C00, 0x0400 Bytes, ...) - Data: 00 00 00 00 00 00 00 00 00 00 00 00 ED 00 00 10 ... -- CPU_WriteMem(1024 bytes @ 0x10001C00)  returns 0x400 (0006ms, 0629ms total)
T0E04 000:820 JLINK_WriteMem(0x10002000, 0x0400 Bytes, ...) - Data: 00 28 03 DD 00 F0 24 FB 04 60 A0 07 FE BD 01 20 ... -- CPU_WriteMem(1024 bytes @ 0x10002000)  returns 0x400 (0006ms, 0635ms total)
T0E04 000:826 JLINK_WriteMem(0x10002400, 0x0400 Bytes, ...) - Data: 60 07 03 D5 04 21 30 46 04 F0 7E F9 68 68 00 28 ... -- CPU_WriteMem(1024 bytes @ 0x10002400)  returns 0x400 (0006ms, 0641ms total)
T0E04 000:832 JLINK_WriteMem(0x10002800, 0x03E0 Bytes, ...) - Data: 00 98 40 42 00 90 02 20 04 43 6D 1C 28 78 2E 28 ... -- CPU_WriteMem(992 bytes @ 0x10002800)  returns 0x3E0 (0006ms, 0647ms total)
T0E04 000:838 JLINK_WriteReg(R0, 0x10000000)  returns 0x00 (0000ms, 0647ms total)
T0E04 000:838 JLINK_WriteReg(R1, 0x00001000)  returns 0x00 (0000ms, 0647ms total)
T0E04 000:838 JLINK_WriteReg(R2, 0x10001BE0)  returns 0x00 (0000ms, 0647ms total)
T0E04 000:838 JLINK_WriteReg(R3, 0x00000000)  returns 0x00 (0000ms, 0647ms total)
T0E04 000:838 JLINK_WriteReg(R4, 0x00000000)  returns 0x00 (0000ms, 0647ms total)
T0E04 000:838 JLINK_WriteReg(R5, 0x00000000)  returns 0x00 (0000ms, 0647ms total)
T0E04 000:838 JLINK_WriteReg(R6, 0x00000000)  returns 0x00 (0000ms, 0647ms total)
T0E04 000:838 JLINK_WriteReg(R7, 0x00000000)  returns 0x00 (0000ms, 0647ms total)
T0E04 000:838 JLINK_WriteReg(R8, 0x00000000)  returns 0x00 (0000ms, 0647ms total)
T0E04 000:838 JLINK_WriteReg(R9, 0x10000BAC)  returns 0x00 (0000ms, 0647ms total)
T0E04 000:838 JLINK_WriteReg(R10, 0x00000000)  returns 0x00 (0000ms, 0647ms total)
T0E04 000:838 JLINK_WriteReg(R11, 0x00000000)  returns 0x00 (0000ms, 0647ms total)
T0E04 000:838 JLINK_WriteReg(R12, 0x00000000)  returns 0x00 (0000ms, 0647ms total)
T0E04 000:838 JLINK_WriteReg(R13 (SP), 0x10008000)  returns 0x00 (0000ms, 0647ms total)
T0E04 000:838 JLINK_WriteReg(R14, 0x10000001)  returns 0x00 (0000ms, 0647ms total)
T0E04 000:838 JLINK_WriteReg(R15 (PC), 0x10000270)  returns 0x00 (0000ms, 0647ms total)
T0E04 000:838 JLINK_WriteReg(XPSR, 0x01000000)  returns 0x00 (0000ms, 0647ms total)
T0E04 000:838 JLINK_WriteReg(MSP, 0x10008000)  returns 0x00 (0000ms, 0647ms total)
T0E04 000:838 JLINK_WriteReg(PSP, 0x10008000)  returns 0x00 (0000ms, 0647ms total)
T0E04 000:838 JLINK_WriteReg(CFBP, 0x00000000)  returns 0x00 (0000ms, 0647ms total)
T0E04 000:838 JLINK_SetBPEx(Addr = 0x10000000, Type = 0xFFFFFFF2)  returns 0x00000010 (0000ms, 0647ms total)
T0E04 000:838 JLINK_Go() -- CPU_WriteMem(4 bytes @ 0xE0002000) -- CPU_ReadMem(4 bytes @ 0xE0001000) -- CPU_WriteMem(4 bytes @ 0xE0001000) (0002ms, 0649ms total)
T0E04 000:840 JLINK_IsHalted()  returns FALSE (0001ms, 0650ms total)
T0E04 000:846 JLINK_IsHalted()  returns FALSE (0000ms, 0649ms total)
T0E04 000:847 JLINK_IsHalted()  returns FALSE (0000ms, 0649ms total)
T0E04 000:848 JLINK_IsHalted()  returns FALSE (0000ms, 0649ms total)
T0E04 000:849 JLINK_IsHalted()  returns FALSE (0000ms, 0649ms total)
T0E04 000:850 JLINK_IsHalted()  returns FALSE (0000ms, 0649ms total)
T0E04 000:851 JLINK_IsHalted()  returns FALSE (0000ms, 0649ms total)
T0E04 000:852 JLINK_IsHalted()  returns FALSE (0000ms, 0649ms total)
T0E04 000:853 JLINK_IsHalted()  returns FALSE (0000ms, 0649ms total)
T0E04 000:854 JLINK_IsHalted()  returns FALSE (0000ms, 0649ms total)
T0E04 000:855 JLINK_IsHalted()  returns FALSE (0000ms, 0649ms total)
T0E04 000:856 JLINK_IsHalted()  returns FALSE (0000ms, 0649ms total)
T0E04 000:857 JLINK_IsHalted()  returns FALSE (0000ms, 0649ms total)
T0E04 000:858 JLINK_IsHalted()  returns FALSE (0000ms, 0649ms total)
T0E04 000:859 JLINK_IsHalted()  returns FALSE (0000ms, 0649ms total)
T0E04 000:860 JLINK_IsHalted()  returns FALSE (0000ms, 0649ms total)
T0E04 000:861 JLINK_IsHalted()  returns FALSE (0000ms, 0649ms total)
T0E04 000:862 JLINK_IsHalted()  returns FALSE (0000ms, 0649ms total)
T0E04 000:863 JLINK_IsHalted()  returns FALSE (0000ms, 0649ms total)
T0E04 000:865 JLINK_IsHalted()  returns FALSE (0000ms, 0649ms total)
T0E04 000:866 JLINK_IsHalted()  returns FALSE (0000ms, 0649ms total)
T0E04 000:867 JLINK_IsHalted()  returns FALSE (0000ms, 0649ms total)
T0E04 000:868 JLINK_IsHalted()  returns FALSE (0000ms, 0649ms total)
T0E04 000:869 JLINK_IsHalted()  returns FALSE (0000ms, 0649ms total)
T0E04 000:870 JLINK_IsHalted()  returns FALSE (0000ms, 0649ms total)
T0E04 000:872 JLINK_IsHalted()  returns FALSE (0000ms, 0649ms total)
T0E04 000:873 JLINK_IsHalted()  returns FALSE (0000ms, 0649ms total)
T0E04 000:874 JLINK_IsHalted()  returns FALSE (0000ms, 0649ms total)
T0E04 000:875 JLINK_IsHalted()  returns FALSE (0000ms, 0649ms total)
T0E04 000:876 JLINK_IsHalted()  returns FALSE (0000ms, 0649ms total)
T0E04 000:877 JLINK_IsHalted()  returns FALSE (0000ms, 0649ms total)
T0E04 000:878 JLINK_IsHalted()  returns FALSE (0000ms, 0649ms total)
T0E04 000:879 JLINK_IsHalted()  returns FALSE (0000ms, 0649ms total)
T0E04 000:880 JLINK_IsHalted()  returns FALSE (0000ms, 0649ms total)
T0E04 000:881 JLINK_IsHalted()  returns FALSE (0000ms, 0649ms total)
T0E04 000:882 JLINK_IsHalted()  returns FALSE (0000ms, 0649ms total)
T0E04 000:883 JLINK_IsHalted()  returns FALSE (0000ms, 0649ms total)
T0E04 000:884 JLINK_IsHalted()  returns FALSE (0000ms, 0649ms total)
T0E04 000:885 JLINK_IsHalted()  returns FALSE (0000ms, 0649ms total)
T0E04 000:886 JLINK_IsHalted()  returns FALSE (0000ms, 0649ms total)
T0E04 000:887 JLINK_IsHalted()  returns FALSE (0000ms, 0649ms total)
T0E04 000:888 JLINK_IsHalted()  returns FALSE (0000ms, 0649ms total)
T0E04 000:889 JLINK_IsHalted()  returns FALSE (0000ms, 0649ms total)
T0E04 000:890 JLINK_IsHalted()  returns FALSE (0000ms, 0649ms total)
T0E04 000:891 JLINK_IsHalted()  returns FALSE (0000ms, 0649ms total)
T0E04 000:892 JLINK_IsHalted()  returns FALSE (0000ms, 0649ms total)
T0E04 000:893 JLINK_IsHalted()  returns FALSE (0000ms, 0649ms total)
T0E04 000:894 JLINK_IsHalted()  returns FALSE (0000ms, 0649ms total)
T0E04 000:895 JLINK_IsHalted()  returns FALSE (0000ms, 0649ms total)
T0E04 000:896 JLINK_IsHalted()  returns FALSE (0000ms, 0649ms total)
T0E04 000:897 JLINK_IsHalted()  returns FALSE (0000ms, 0649ms total)
T0E04 000:898 JLINK_IsHalted()  returns FALSE (0000ms, 0649ms total)
T0E04 000:899 JLINK_IsHalted()  returns FALSE (0000ms, 0649ms total)
T0E04 000:900 JLINK_IsHalted()  returns FALSE (0000ms, 0649ms total)
T0E04 000:901 JLINK_IsHalted()  returns FALSE (0000ms, 0649ms total)
T0E04 000:902 JLINK_IsHalted()  returns FALSE (0000ms, 0649ms total)
T0E04 000:903 JLINK_IsHalted()  returns FALSE (0000ms, 0649ms total)
T0E04 000:904 JLINK_IsHalted()  returns FALSE (0000ms, 0649ms total)
T0E04 000:905 JLINK_IsHalted()  returns FALSE (0000ms, 0649ms total)
T0E04 000:906 JLINK_IsHalted()  returns FALSE (0000ms, 0649ms total)
T0E04 000:907 JLINK_IsHalted()  returns FALSE (0000ms, 0649ms total)
T0E04 000:908 JLINK_IsHalted()  returns FALSE (0000ms, 0649ms total)
T0E04 000:909 JLINK_IsHalted()  returns FALSE (0000ms, 0649ms total)
T0E04 000:910 JLINK_IsHalted()  returns FALSE (0000ms, 0649ms total)
T0E04 000:911 JLINK_IsHalted()  returns FALSE (0000ms, 0649ms total)
T0E04 000:912 JLINK_IsHalted()  returns FALSE (0000ms, 0649ms total)
T0E04 000:913 JLINK_IsHalted()  returns FALSE (0000ms, 0649ms total)
T0E04 000:914 JLINK_IsHalted()  returns FALSE (0000ms, 0649ms total)
T0E04 000:915 JLINK_IsHalted()  returns FALSE (0000ms, 0649ms total)
T0E04 000:916 JLINK_IsHalted()  returns FALSE (0000ms, 0649ms total)
T0E04 000:917 JLINK_IsHalted()  returns FALSE (0000ms, 0649ms total)
T0E04 000:918 JLINK_IsHalted()  returns FALSE (0000ms, 0649ms total)
T0E04 000:919 JLINK_IsHalted()  returns FALSE (0000ms, 0649ms total)
T0E04 000:920 JLINK_IsHalted()  returns FALSE (0000ms, 0649ms total)
T0E04 000:921 JLINK_IsHalted()  returns FALSE (0000ms, 0649ms total)
T0E04 000:922 JLINK_IsHalted()  returns FALSE (0000ms, 0649ms total)
T0E04 000:923 JLINK_IsHalted()  returns FALSE (0000ms, 0649ms total)
T0E04 000:924 JLINK_IsHalted()  returns FALSE (0000ms, 0649ms total)
T0E04 000:925 JLINK_IsHalted()  returns FALSE (0000ms, 0649ms total)
T0E04 000:926 JLINK_IsHalted()  returns FALSE (0000ms, 0649ms total)
T0E04 000:927 JLINK_IsHalted()  returns FALSE (0000ms, 0649ms total)
T0E04 000:928 JLINK_IsHalted()  returns FALSE (0000ms, 0649ms total)
T0E04 000:929 JLINK_IsHalted()  returns FALSE (0000ms, 0649ms total)
T0E04 000:930 JLINK_IsHalted()  returns FALSE (0000ms, 0649ms total)
T0E04 000:931 JLINK_IsHalted()  returns FALSE (0000ms, 0649ms total)
T0E04 000:932 JLINK_IsHalted()  returns FALSE (0000ms, 0649ms total)
T0E04 000:933 JLINK_IsHalted()  returns FALSE (0000ms, 0649ms total)
T0E04 000:934 JLINK_IsHalted()  returns FALSE (0000ms, 0649ms total)
